Circuit: * Z:\home\bhargava\ddp\SPICE\Diffamp.asc

Ignoring BSIM parameter XL
Ignoring BSIM parameter XW
Ignoring BSIM parameter XL
Ignoring BSIM parameter XW
WARNING: Node NC_01 is floating.
WARNING: Node NC_02 is floating.

WARNING: Less than two connections to node NC_01.  This node is used by C3.
WARNING: Less than two connections to node NC_02.  This node is used by C4.
Warning: Pd = 0 is less than W.
Warning: Ps = 0 is less than W.
Warning: Pd = 0 is less than W.
Warning: Ps = 0 is less than W.
Warning: Pd = 0 is less than W.
Warning: Ps = 0 is less than W.
Warning: Pd = 0 is less than W.
Warning: Ps = 0 is less than W.
Warning: Pd = 0 is less than W.
Warning: Ps = 0 is less than W.
Warning: Pd = 0 is less than W.
Warning: Ps = 0 is less than W.
Warning: Pd = 0 is less than W.
Warning: Ps = 0 is less than W.
Warning: Pd = 0 is less than W.
Warning: Ps = 0 is less than W.
Warning: Pd = 0 is less than W.
Warning: Ps = 0 is less than W.
Direct Newton iteration for .op point succeeded.
Semiconductor Device Operating Points:
                        --- BSIM3 MOSFETS ---
Name:        m17         m16         m11         m10         m9
Model:      cmosn       cmosn       cmosn       cmosn       cmosn
Id:        1.06e-03    1.06e-03    3.60e-04    3.60e-04    7.19e-04
Vgs:       2.10e+00    2.10e+00    2.10e+00    2.10e+00    5.05e-01
Vds:       2.58e+00    2.58e+00    1.95e-01    1.95e-01    5.63e-01
Vbs:       0.00e+00    0.00e+00    0.00e+00    0.00e+00    0.00e+00
Vth:       3.88e-01    3.88e-01    3.97e-01    3.97e-01    3.96e-01
Vdsat:     1.16e+00    1.16e+00    1.16e+00    1.16e+00    9.58e-02
Gm:        9.41e-04    9.41e-04    9.54e-05    9.54e-05    1.12e-02
Gds:       1.11e-05    1.11e-05    1.69e-03    1.69e-03    6.56e-05
Gmb        3.65e-04    3.65e-04    8.95e-05    8.95e-05    3.20e-03
Cbd:       0.00e+00    0.00e+00    0.00e+00    0.00e+00    0.00e+00
Cbs:       0.00e+00    0.00e+00    0.00e+00    0.00e+00    0.00e+00
Cgsov:     4.90e-15    4.90e-15    6.34e-15    6.34e-15    5.72e-13
Cgdov:     4.90e-15    4.90e-15    6.34e-15    6.34e-15    5.72e-13
Cgbov:     1.37e-18    1.37e-18    1.37e-18    1.37e-18    1.37e-18
dQgdVgb:   6.63e-14    6.63e-14    1.01e-13    1.01e-13    7.57e-12
dQgdVdb:  -4.75e-15   -4.75e-15   -4.53e-14   -4.53e-14   -5.56e-13
dQgdVsb:  -6.25e-14   -6.25e-14   -5.58e-14   -5.58e-14   -6.50e-12
dQddVgb:  -2.77e-14   -2.77e-14   -5.03e-14   -5.03e-14   -3.12e-12
dQddVdb:   4.81e-15    4.81e-15    4.33e-14    4.33e-14    5.64e-13
dQddVsb:   3.02e-14    3.02e-14    1.93e-14    1.93e-14    3.37e-12
dQbdVgb:  -1.09e-14   -1.09e-14   -4.76e-16   -4.76e-16   -1.33e-12
dQbdVdb:   1.62e-17    1.62e-17   -3.50e-14   -3.50e-14    9.97e-16
dQbdVsb:  -2.68e-15   -2.68e-15    1.09e-14    1.09e-14   -8.01e-13

Name:        m8          m7          m6          m5          m15
Model:      cmosn       cmosn       cmosn       cmosn       cmosp
Id:        3.60e-04    3.60e-04    3.60e-04    3.60e-04    1.06e-03
Vgs:       8.92e-01    8.92e-01    9.72e-01    9.72e-01   -1.28e-01
Vds:       5.20e-01    5.20e-01    8.18e-01    8.18e-01    7.22e-01
Vbs:       0.00e+00    0.00e+00    0.00e+00    0.00e+00    7.22e-01
Vth:       3.96e-01    3.96e-01    3.95e-01    3.95e-01   -4.10e-01
Vdsat:     3.46e-01    3.46e-01    3.97e-01    3.97e-01   -3.36e-01
Gm:        1.37e-03    1.37e-03    1.18e-03    1.18e-03    4.41e-03
Gds:       3.63e-05    3.63e-05    1.36e-05    1.36e-05    5.00e-05
Gmb        3.64e-04    3.64e-04    3.12e-04    3.12e-04    1.44e-03
Cbd:       0.00e+00    0.00e+00    0.00e+00    0.00e+00    0.00e+00
Cbs:       0.00e+00    0.00e+00    0.00e+00    0.00e+00    0.00e+00
Cgsov:     1.56e-14    1.56e-14    1.15e-14    1.15e-14    1.82e-13
Cgdov:     1.56e-14    1.56e-14    1.15e-14    1.15e-14    1.82e-13
Cgbov:     1.37e-18    1.37e-18    1.37e-18    1.37e-18    1.34e-18
dQgdVgb:   2.12e-13    2.12e-13    1.57e-13    1.57e-13    3.03e-12
dQgdVdb:  -1.61e-14   -1.61e-14   -1.13e-14   -1.13e-14   -1.80e-13
dQgdVsb:  -1.88e-13   -1.88e-13   -1.40e-13   -1.40e-13   -2.80e-12
dQddVgb:  -8.88e-14   -8.88e-14   -6.54e-14   -6.54e-14   -1.27e-12
dQddVdb:   1.62e-14    1.62e-14    1.15e-14    1.15e-14    1.82e-13
dQddVsb:   9.58e-14    9.58e-14    7.10e-14    7.10e-14    1.43e-12
dQbdVgb:  -3.44e-14   -3.44e-14   -2.58e-14   -2.58e-14   -5.01e-13
dQbdVdb:  -8.25e-16   -8.25e-16   -8.32e-17   -8.32e-17   -1.74e-15
dQbdVsb:  -1.93e-14   -1.93e-14   -1.38e-14   -1.38e-14   -2.50e-13

Name:        m14         m13         m12         m4          m3
Model:      cmosp       cmosp       cmosp       cmosp       cmosp
Id:        0.00e+00    1.06e-03    0.00e+00    3.60e-04    3.60e-04
Vgs:      -2.10e+00   -1.28e-01   -2.10e+00   -4.61e-02   -4.61e-02
Vds:       0.00e+00    7.22e-01    0.00e+00    9.57e-01    9.57e-01
Vbs:       0.00e+00    7.22e-01    0.00e+00    9.57e-01    9.57e-01
Vth:      -3.93e-01   -4.10e-01   -3.93e-01   -4.10e-01   -4.10e-01
Vdsat:    -1.50e+00   -3.36e-01   -1.50e+00   -4.49e-01   -4.49e-01
Gm:        0.00e+00    4.41e-03    0.00e+00    1.10e-03    1.10e-03
Gds:       1.33e-03    5.00e-05    1.33e-03    1.27e-05    1.27e-05
Gmb        0.00e+00    1.44e-03    0.00e+00    3.65e-04    3.65e-04
Cbd:       0.00e+00    0.00e+00    0.00e+00    0.00e+00    0.00e+00
Cbs:       0.00e+00    0.00e+00    0.00e+00    0.00e+00    0.00e+00
Cgsov:     1.33e-13    1.82e-13    1.33e-13    3.56e-14    3.56e-14
Cgdov:     1.33e-13    1.82e-13    1.33e-13    3.56e-14    3.56e-14
Cgbov:     1.32e-17    1.34e-18    1.32e-17    1.34e-18    1.34e-18
dQgdVgb:   2.37e-11    3.03e-12    2.37e-11    5.91e-13    5.91e-13
dQgdVdb:  -1.16e-11   -1.80e-13   -1.16e-11   -3.48e-14   -3.48e-14
dQgdVsb:  -1.28e-11   -2.80e-12   -1.28e-11   -5.49e-13   -5.49e-13
dQddVgb:  -1.18e-11   -1.27e-12   -1.18e-11   -2.47e-13   -2.47e-13
dQddVdb:   9.56e-12    1.82e-13    9.56e-12    3.53e-14    3.53e-14
dQddVsb:   6.07e-12    1.43e-12    6.07e-12    2.79e-13    2.79e-13
dQbdVgb:  -3.74e-14   -5.01e-13   -3.74e-14   -9.77e-14   -9.77e-14
dQbdVdb:  -7.38e-12   -1.74e-15   -7.38e-12   -1.68e-16   -1.68e-16
dQbdVsb:   5.59e-13   -2.50e-13    5.59e-13   -4.54e-14   -4.54e-14

Name:        m2          m1
Model:      cmosp       cmosp
Id:        3.60e-04    3.60e-04
Vgs:      -6.03e-01   -6.03e-01
Vds:       2.47e-01    2.47e-01
Vbs:       2.47e-01    2.47e-01
Vth:      -4.12e-01   -4.12e-01
Vdsat:    -3.35e-01   -3.35e-01
Gm:        1.21e-03    1.21e-03
Gds:       6.28e-04    6.28e-04
Gmb        4.19e-04    4.19e-04
Cbd:       0.00e+00    0.00e+00
Cbs:       0.00e+00    0.00e+00
Cgsov:     7.11e-14    7.11e-14
Cgdov:     7.11e-14    7.11e-14
Cgbov:     1.34e-18    1.34e-18
dQgdVgb:   1.25e-12    1.25e-12
dQgdVdb:  -1.87e-13   -1.87e-13
dQgdVsb:  -1.06e-12   -1.06e-12
dQddVgb:  -5.57e-13   -5.57e-13
dQddVdb:   1.77e-13    1.77e-13
dQddVsb:   5.32e-13    5.32e-13
dQbdVgb:  -1.39e-13   -1.39e-13
dQbdVdb:  -9.73e-14   -9.73e-14
dQbdVsb:  -7.46e-14   -7.46e-14



Date: Tue Sep 25 14:11:09 2012
Total elapsed time: 0.133 seconds.

tnom = 27
temp = 27
method = trap
totiter = 15
traniter = 0
tranpoints = 0
accept = 0
rejected = 0
matrix size = 28
fillins = 4
solver = Normal
Matrix Compiler1: 1.68 KB object code size
Matrix Compiler2: 2.61 KB object code size

