Circuit: * Z:\home\bhargava\ddp\SPICE\IdVds.asc

Ignoring BSIM parameter XL
Ignoring BSIM parameter XW
Warning: Pd = 0 is less than W.
Warning: Ps = 0 is less than W.
Direct Newton iteration for .op point succeeded.
Semiconductor Device Operating Points:
                        --- BSIM3 MOSFETS ---
Name:        m1
Model:      cmosn
Id:        7.71e-04
Vgs:       3.86e+00
Vds:       5.00e+00
Vbs:       0.00e+00
Vth:       4.23e-01
Vdsat:     1.58e+00
Gm:        2.00e-04
Gds:       6.27e-06
Gmb        9.82e-05
Cbd:       0.00e+00
Cbs:       0.00e+00
Cgsov:     5.93e-16
Cgdov:     5.93e-16
Cgbov:     3.26e-19
dQgdVgb:   2.86e-15
dQgdVdb:  -5.84e-16
dQgdVsb:  -2.40e-15
dQddVgb:  -1.25e-15
dQddVdb:   5.88e-16
dQddVsb:   8.68e-16
dQbdVgb:  -3.52e-16
dQbdVdb:   8.59e-19
dQbdVsb:   7.42e-17



Date: Thu Sep 20 01:34:47 2012
Total elapsed time: 0.269 seconds.

tnom = 27
temp = 27
method = trap
totiter = 6
traniter = 0
tranpoints = 0
accept = 0
rejected = 0
matrix size = 4
fillins = 0
solver = Normal
Matrix Compiler1: 118 bytes object code size
Matrix Compiler2: 216 bytes object code size

