time	V(cmirror)	V(p001)	V(p002)	V(vdd)	V(n001)	V(n002)	V(n003)	V(n004)	V(n005)	V(n006)	V(n007)	V(n008)	V(n009)	V(n010)
0.000000000000000e+000	3.113045349452962e+000	0.000000000000000e+000	0.000000000000000e+000	5.000000000000000e+000	3.193165928750869e+000	3.193165928750869e+000	3.193165928750869e+000	1.006282787424593e+000	1.999980000199998e+000	2.000000000000000e+000	2.000000000000000e+000	1.999980000199998e+000	3.110500000000000e+000	8.266592875086880e-001
2.929687403590252e-014	3.113045349452435e+000	0.000000000000000e+000	0.000000000000000e+000	5.000000000000000e+000	3.193165928746795e+000	3.193165928746795e+000	3.193165928746795e+000	1.006282787200193e+000	1.999980000199998e+000	2.000000000000000e+000	2.000000000000000e+000	1.999980000199998e+000	3.110500000000000e+000	8.266592874679509e-001
5.859374807180504e-014	3.113045349451532e+000	0.000000000000000e+000	0.000000000000000e+000	5.000000000000000e+000	3.193165928739812e+000	3.193165928739812e+000	3.193165928739812e+000	1.006282786964942e+000	1.999980000199998e+000	2.000000000000000e+000	2.000000000000000e+000	1.999980000199998e+000	3.110500000000000e+000	8.266592873981228e-001
1.171874961436101e-013	3.113045349448003e+000	0.000000000000000e+000	0.000000000000000e+000	5.000000000000000e+000	3.193165928712493e+000	3.193165928712493e+000	3.193165928712493e+000	1.006282786445518e+000	1.999980000199998e+000	2.000000000000000e+000	2.000000000000000e+000	1.999980000199998e+000	3.110500000000000e+000	8.266592871249281e-001
2.343749922872201e-013	3.113045349432125e+000	0.000000000000000e+000	0.000000000000000e+000	5.000000000000000e+000	3.193165928589210e+000	3.193165928589210e+000	3.193165928589210e+000	1.006282785164625e+000	1.999980000199998e+000	2.000000000000000e+000	2.000000000000000e+000	1.999980000199998e+000	3.110500000000000e+000	8.266592858920958e-001
4.687499845744403e-013	3.113045349345080e+000	0.000000000000000e+000	0.000000000000000e+000	5.000000000000000e+000	3.193165927909676e+000	3.193165927909676e+000	3.193165927909676e+000	1.006282781178871e+000	1.999980000199998e+000	2.000000000000000e+000	2.000000000000000e+000	1.999980000199998e+000	3.110500000000000e+000	8.266592790967605e-001
9.374999691488806e-013	3.113045348558859e+000	0.000000000000000e+000	0.000000000000000e+000	5.000000000000000e+000	3.193165921710555e+000	3.193165921710556e+000	3.193165921710556e+000	1.006282759037177e+000	1.999980000199998e+000	2.000000000000000e+000	2.000000000000000e+000	1.999980000199998e+000	3.110500000000000e+000	8.266592171055531e-001
1.874999938297761e-012	3.113045366188359e+000	0.000000000000000e+000	0.000000000000000e+000	5.000000000000000e+000	3.193166062983736e+000	3.193166062983737e+000	3.193166062983737e+000	1.006283093444980e+000	1.999980000199998e+000	2.000000000000000e+000	2.000000000000000e+000	1.999980000199998e+000	3.110500000000000e+000	8.266606298373638e-001
3.749999876595522e-012	3.113045333917811e+000	0.000000000000000e+000	0.000000000000000e+000	5.000000000000000e+000	3.193165798627005e+000	3.193165798627005e+000	3.193165798627005e+000	1.006282670347009e+000	1.999980000199998e+000	2.000000000000000e+000	2.000000000000000e+000	1.999980000199998e+000	3.110500000000000e+000	8.266579862700525e-001
7.499999753191045e-012	3.113045311012868e+000	0.000000000000000e+000	0.000000000000000e+000	5.000000000000000e+000	3.193165617753963e+000	3.193165617753963e+000	3.193165617753963e+000	1.006282108240884e+000	1.999980000199998e+000	2.000000000000000e+000	2.000000000000000e+000	1.999980000199998e+000	3.110500000000000e+000	8.266561775396271e-001
1.499999950638209e-011	3.113045426165258e+000	0.000000000000000e+000	0.000000000000000e+000	5.000000000000000e+000	3.193166550520655e+000	3.193166550520655e+000	3.193166550520655e+000	1.006283929321368e+000	1.999980000199998e+000	2.000000000000000e+000	2.000000000000000e+000	1.999980000199998e+000	3.110500000000000e+000	8.266655052065424e-001
2.999999901276418e-011	3.113045276196678e+000	0.000000000000000e+000	0.000000000000000e+000	5.000000000000000e+000	3.193165327400624e+000	3.193165327400624e+000	3.193165327400624e+000	1.006281766204093e+000	1.999980000199998e+000	2.000000000000000e+000	2.000000000000000e+000	1.999980000199998e+000	3.110500000000000e+000	8.266532740062356e-001
5.999999802552836e-011	3.113045399580289e+000	0.000000000000000e+000	0.000000000000000e+000	5.000000000000000e+000	3.193166332955423e+000	3.193166332955423e+000	3.193166332955423e+000	1.006283472914090e+000	1.999980000199998e+000	2.000000000000000e+000	2.000000000000000e+000	1.999980000199998e+000	3.110500000000000e+000	8.266633295542284e-001
1.199999960510567e-010	3.113045319891720e+000	0.000000000000000e+000	0.000000000000000e+000	5.000000000000000e+000	3.193165680855329e+000	3.193165680855329e+000	3.193165680855329e+000	1.006282389513598e+000	1.999980000199998e+000	2.000000000000000e+000	2.000000000000000e+000	1.999980000199998e+000	3.110500000000000e+000	8.266568085532909e-001
2.399999921021134e-010	3.113045365463429e+000	0.000000000000000e+000	0.000000000000000e+000	5.000000000000000e+000	3.193166052840728e+000	3.193166052840728e+000	3.193166052840728e+000	1.006283002224391e+000	1.999980000199998e+000	2.000000000000000e+000	2.000000000000000e+000	1.999980000199998e+000	3.110500000000000e+000	8.266605284072794e-001
4.799999842042269e-010	3.113045341112506e+000	0.000000000000000e+000	0.000000000000000e+000	5.000000000000000e+000	3.193165853639234e+000	3.193165853639234e+000	3.193165853639234e+000	1.006282676157280e+000	1.999980000199998e+000	2.000000000000000e+000	2.000000000000000e+000	1.999980000199998e+000	3.110500000000000e+000	8.266585363923427e-001
9.599999684084537e-010	3.113045353710030e+000	0.000000000000000e+000	0.000000000000000e+000	5.000000000000000e+000	3.193165956556990e+000	3.193165956556990e+000	3.193165956556991e+000	1.006282844434193e+000	1.999980000199998e+000	2.000000000000000e+000	2.000000000000000e+000	1.999980000199998e+000	3.110500000000000e+000	8.266595655699032e-001
1.919999936816907e-009	3.113045347303904e+000	0.000000000000000e+000	0.000000000000000e+000	5.000000000000000e+000	3.193165904147887e+000	3.193165904147887e+000	3.193165904147887e+000	1.006282758963654e+000	1.999980000199998e+000	2.000000000000000e+000	2.000000000000000e+000	1.999980000199998e+000	3.110500000000000e+000	8.266590414788735e-001
3.839999873633815e-009	3.113045350197973e+000	0.000000000000000e+000	0.000000000000000e+000	5.000000000000000e+000	3.193165927791486e+000	3.193165927791486e+000	3.193165927791486e+000	1.006282797558639e+000	1.999980000199998e+000	2.000000000000000e+000	2.000000000000000e+000	1.999980000199998e+000	3.110500000000000e+000	8.266592779148633e-001
6.829312487363382e-008	3.113045349452719e+000	0.000000000000000e+000	0.000000000000000e+000	5.000000000000000e+000	3.193165921493537e+000	3.193165921493537e+000	3.193165921493537e+000	1.006282787652887e+000	1.999980000199998e+000	2.000000000000000e+000	2.000000000000000e+000	1.999980000199998e+000	3.110500000000000e+000	8.266592149353678e-001
7.122281237363381e-008	3.113044609790209e+000	0.000000000000000e+000	0.000000000000000e+000	5.000000000000000e+000	3.193159899440955e+000	3.193159899440955e+000	3.193159899440955e+000	1.006271999784045e+000	1.999980000199998e+000	2.000000000000000e+000	2.000000000000000e+000	1.999980000199998e+000	3.110500000000000e+000	8.265989944095448e-001
7.158902331113382e-008	3.113044794822525e+000	0.000000000000000e+000	0.000000000000000e+000	5.000000000000000e+000	3.193161406795191e+000	3.193161406795191e+000	3.193161406795191e+000	1.006274698149341e+000	1.999980000199998e+000	2.000000000000000e+000	2.000000000000000e+000	1.999980000199998e+000	3.110500000000000e+000	8.266140679519095e-001
7.232144518613381e-008	3.113045349442445e+000	0.000000000000000e+000	0.000000000000000e+000	5.000000000000000e+000	3.193165924083463e+000	3.193165924083463e+000	3.193165924083463e+000	1.006282787069712e+000	1.999980000199998e+000	2.000000000000000e+000	2.000000000000000e+000	1.999980000199998e+000	3.110500000000000e+000	8.266592408346245e-001
7.964566393613382e-008	3.113045349452949e+000	0.000000000000000e+000	0.000000000000000e+000	5.000000000000000e+000	3.193165924178353e+000	3.193165924178353e+000	3.193165924178353e+000	1.006282787211381e+000	1.999980000199998e+000	2.000000000000000e+000	2.000000000000000e+000	1.999980000199998e+000	3.110500000000000e+000	8.266592417835290e-001
8.294156237363382e-008	3.113045347431560e+000	0.000000000000000e+000	0.000000000000000e+000	5.000000000000000e+000	3.193165907714650e+000	3.193165907714650e+000	3.193165907714650e+000	1.006282760489565e+000	1.999980000199998e+000	2.000000000000000e+000	2.000000000000000e+000	1.999980000199998e+000	3.110500000000000e+000	8.266590771464957e-001
8.367398424863381e-008	3.113045349452871e+000	0.000000000000000e+000	0.000000000000000e+000	5.000000000000000e+000	3.193165924177397e+000	3.193165924177397e+000	3.193165924177397e+000	1.006282787210955e+000	1.999980000199998e+000	2.000000000000000e+000	2.000000000000000e+000	1.999980000199998e+000	3.110500000000000e+000	8.266592417739710e-001
1.245065037798838e-007	3.113045349452962e+000	0.000000000000000e+000	0.000000000000000e+000	5.000000000000000e+000	3.193165924177697e+000	3.193165924177697e+000	3.193165924177697e+000	1.006282787211546e+000	1.999980000199998e+000	2.000000000000000e+000	2.000000000000000e+000	1.999980000199998e+000	3.110500000000000e+000	8.266592417769640e-001
1.247811619830088e-007	3.113045349452962e+000	0.000000000000000e+000	0.000000000000000e+000	5.000000000000000e+000	3.193165924177696e+000	3.193165924177697e+000	3.193165924177697e+000	1.006282787211546e+000	1.999980000199998e+000	2.000000000000000e+000	2.000000000000000e+000	1.999980000199998e+000	3.110500000000000e+000	8.266592417769642e-001
1.249184910845713e-007	3.113045349452962e+000	0.000000000000000e+000	0.000000000000000e+000	5.000000000000000e+000	3.193165924177696e+000	3.193165924177697e+000	3.193165924177697e+000	1.006282787211546e+000	1.999980000199998e+000	2.000000000000000e+000	2.000000000000000e+000	1.999980000199998e+000	3.110500000000000e+000	8.266592417769642e-001
1.251015965533213e-007	3.113045349452962e+000	0.000000000000000e+000	0.000000000000000e+000	5.000000000000000e+000	3.193165924177696e+000	3.193165924177697e+000	3.193165924177697e+000	1.006282787211546e+000	1.999980000199998e+000	2.000000000000000e+000	2.000000000000000e+000	1.999980000199998e+000	3.110500000000000e+000	8.266592417769642e-001
1.262002293658213e-007	3.113045349452962e+000	0.000000000000000e+000	0.000000000000000e+000	5.000000000000000e+000	3.193165924177696e+000	3.193165924177697e+000	3.193165924177697e+000	1.006282787211546e+000	1.999980000199998e+000	2.000000000000000e+000	2.000000000000000e+000	1.999980000199998e+000	3.110500000000000e+000	8.266592417769642e-001
7.718301121783213e-007	3.113045349452962e+000	0.000000000000000e+000	0.000000000000000e+000	5.000000000000000e+000	3.193165924177697e+000	3.193165924177697e+000	3.193165924177697e+000	1.006282787211546e+000	1.999980000199998e+000	2.000000000000000e+000	2.000000000000000e+000	1.999980000199998e+000	3.110500000000000e+000	8.266592417769642e-001
1.000000000000000e-006	3.113045349452962e+000	0.000000000000000e+000	0.000000000000000e+000	5.000000000000000e+000	3.193165924177697e+000	3.193165924177697e+000	3.193165924177697e+000	1.006282787211546e+000	1.999980000199998e+000	2.000000000000000e+000	2.000000000000000e+000	1.999980000199998e+000	3.110500000000000e+000	8.266592417769642e-001
1.000292968750000e-006	3.113045349477305e+000	5.859374999999294e-004	-5.859374999999294e-004	5.000000000000000e+000	3.182131319113151e+000	3.193165927131213e+000	3.204200535149276e+000	1.006282055763373e+000	1.999394062699998e+000	2.000000000000000e+000	2.000000000000000e+000	2.000565937699998e+000	3.110500000000000e+000	8.266592713121327e-001
1.000878906250000e-006	3.113045349528623e+000	1.757812500000071e-003	-1.757812500000071e-003	5.000000000000000e+000	3.158410487335032e+000	3.193165940561148e+000	3.227921393787264e+000	1.006277635516625e+000	1.998222187699998e+000	2.000000000000000e+000	2.000000000000000e+000	2.001737812699998e+000	3.110500000000000e+000	8.266594056114758e-001
1.004394531250000e-006	3.113045349752584e+000	8.789062499999835e-003	-8.789062499999835e-003	5.000000000000000e+000	3.011840521568772e+000	3.193166188540499e+000	3.374491855512225e+000	1.006172360430594e+000	1.991190937699998e+000	2.000000000000000e+000	2.000000000000000e+000	2.008769062699998e+000	3.110500000000000e+000	8.266618854049832e-001
1.007324218750000e-006	3.113049163923687e+000	1.464843750000011e-002	-1.464843750000011e-002	5.000000000000000e+000	2.890044607227316e+000	3.193165559315639e+000	3.496286511403961e+000	1.006014611535147e+000	1.985331562699998e+000	2.000000000000000e+000	2.000000000000000e+000	2.014628437699998e+000	3.110500000000000e+000	8.266555931563867e-001
1.010253906250000e-006	3.113062683430102e+000	2.050781250000000e-002	-2.050781250000000e-002	5.000000000000000e+000	2.773674648238200e+000	3.193146362546488e+000	3.612618076854775e+000	1.006050035600902e+000	1.979472187699998e+000	2.000000000000000e+000	2.000000000000000e+000	2.020487812699998e+000	3.110500000000000e+000	8.264636254648781e-001
1.013183593750000e-006	3.113076400977708e+000	2.636718750000000e-002	-2.636718750000000e-002	5.000000000000000e+000	2.671468777722434e+000	3.193079625825958e+000	3.714690473929482e+000	1.006711668331741e+000	1.973612812699998e+000	2.000000000000000e+000	2.000000000000000e+000	2.026347187699998e+000	3.110500000000000e+000	8.257962582595758e-001
1.019042968750000e-006	3.113084885747080e+000	3.808593750000000e-002	-3.808593750000000e-002	5.000000000000000e+000	2.510177328476571e+000	3.192805087566182e+000	3.875432846655794e+000	1.009997343902163e+000	1.961894062699999e+000	2.000000000000000e+000	2.000000000000000e+000	2.038065937699998e+000	3.110500000000000e+000	8.230508756618199e-001
1.027832031250000e-006	3.113086515676167e+000	5.566406250000000e-002	-5.566406250000000e-002	5.000000000000000e+000	2.324529368603810e+000	3.192217393713388e+000	4.059905418822968e+000	1.017492154118574e+000	1.944315937699999e+000	2.000000000000000e+000	2.000000000000000e+000	2.055644062699997e+000	3.110500000000000e+000	8.171739371338869e-001
1.036621093750000e-006	3.113085096832364e+000	7.324218750000000e-002	-7.324218750000000e-002	5.000000000000000e+000	2.174389208759723e+000	3.191533116148752e+000	4.208677023537781e+000	1.026601175481227e+000	1.926737812699999e+000	2.000000000000000e+000	2.000000000000000e+000	2.073222187699997e+000	3.110500000000000e+000	8.103311614875193e-001
1.038713727678572e-006	3.113084587638357e+000	7.742745535714286e-002	-7.742745535714286e-002	5.000000000000000e+000	2.142415979021306e+000	3.191361450405970e+000	4.240306921790634e+000	1.028941540417339e+000	1.922552544842856e+000	2.000000000000000e+000	2.000000000000000e+000	2.077407455557140e+000	3.110500000000000e+000	8.086145040596966e-001
1.040806361607143e-006	3.113084057564667e+000	8.161272321428537e-002	-8.161272321428537e-002	5.000000000000000e+000	2.111423697508400e+000	3.191188537958799e+000	4.270953378409198e+000	1.031327004299814e+000	1.918367276985714e+000	2.000000000000000e+000	2.000000000000000e+000	2.081592723414282e+000	3.110500000000000e+000	8.068853795879876e-001
1.042898995535714e-006	3.113083506611293e+000	8.579799107142835e-002	-8.579799107142835e-002	5.000000000000000e+000	2.081412364220999e+000	3.191014378807239e+000	4.300616393393480e+000	1.033757567128652e+000	1.914182009128571e+000	2.000000000000000e+000	2.000000000000000e+000	2.085777991271425e+000	3.110500000000000e+000	8.051437880723916e-001
1.044991629464286e-006	3.113082934778235e+000	8.998325892857097e-002	-8.998325892857097e-002	5.000000000000000e+000	2.052381979159108e+000	3.190838972951291e+000	4.329295966743475e+000	1.036233228903852e+000	1.909996741271428e+000	2.000000000000000e+000	2.000000000000000e+000	2.089963259128568e+000	3.110500000000000e+000	8.033897295129092e-001
1.047084263392857e-006	3.113082342065495e+000	9.416852678571407e-002	-9.416852678571407e-002	5.000000000000000e+000	2.024332542322722e+000	3.190662320390954e+000	4.356992098459187e+000	1.038753989625415e+000	1.905811473414285e+000	2.000000000000000e+000	2.000000000000000e+000	2.094148526985711e+000	3.110500000000000e+000	8.016232039095400e-001
1.049176897321429e-006	3.113081728473070e+000	9.835379464285679e-002	-9.835379464285679e-002	5.000000000000000e+000	1.997264053711846e+000	3.190484421126228e+000	4.383704788540611e+000	1.041319849293341e+000	1.901626205557143e+000	2.000000000000000e+000	2.000000000000000e+000	2.098333794842854e+000	3.110500000000000e+000	7.998442112622843e-001
1.051269531250000e-006	3.113081094000963e+000	1.025390625000000e-001	-1.025390625000000e-001	5.000000000000000e+000	1.971176513326475e+000	3.190305275157114e+000	4.409434036987754e+000	1.043930807907630e+000	1.897440937699999e+000	2.000000000000000e+000	2.000000000000000e+000	2.102519062699997e+000	3.110500000000000e+000	7.980527515711419e-001
1.054199218750000e-006	3.113080207829955e+000	1.083984375000000e-001	-1.083984375000000e-001	5.000000000000000e+000	1.935790042912906e+000	3.190055037230491e+000	4.444320031548076e+000	1.047639393746692e+000	1.891581562699999e+000	2.000000000000000e+000	2.000000000000000e+000	2.108378437699997e+000	3.110500000000000e+000	7.955503723049069e-001
1.057128906250000e-006	3.113079290269937e+000	1.142578124999999e-001	-1.142578124999999e-001	5.000000000000000e+000	1.901885815205202e+000	3.189804921327166e+000	4.477724027449130e+000	1.051414569318644e+000	1.885722187700000e+000	2.000000000000000e+000	2.000000000000000e+000	2.114237812699997e+000	3.110500000000000e+000	7.930492132716591e-001
1.060058593750000e-006	3.113078382522101e+000	1.201171875000001e-001	-1.201171875000001e-001	5.000000000000000e+000	1.869379464119630e+000	3.189555455912179e+000	4.509731447704729e+000	1.055253230690583e+000	1.879862812699999e+000	2.000000000000000e+000	2.000000000000000e+000	2.120097187699997e+000	3.110500000000000e+000	7.905545591217930e-001
1.071777343750000e-006	3.113074689294970e+000	1.435546875000000e-001	-1.435546875000000e-001	5.000000000000000e+000	1.751939554491092e+000	3.188572474980211e+000	4.625205395469330e+000	1.071219682450148e+000	1.856425312700000e+000	2.000000000000000e+000	2.000000000000000e+000	2.143534687699996e+000	3.110500000000000e+000	7.807247498021084e-001
1.074707031250000e-006	3.113071319461324e+000	1.494140624999999e-001	-1.494140624999999e-001	5.000000000000000e+000	1.725250744802051e+000	3.188332387417634e+000	4.651414030033219e+000	1.075339687454464e+000	1.850565937700000e+000	2.000000000000000e+000	2.000000000000000e+000	2.149394062699996e+000	3.110500000000000e+000	7.783238741763446e-001
1.075073242187500e-006	3.113071807378998e+000	1.501464843750001e-001	-1.501464843750001e-001	5.000000000000000e+000	1.721992478219758e+000	3.188302459807238e+000	4.654612441394718e+000	1.075859848055992e+000	1.849833515825000e+000	2.000000000000000e+000	2.000000000000000e+000	2.150126484574996e+000	3.110500000000000e+000	7.780245980723812e-001
1.075805664062500e-006	3.113073402937179e+000	1.516113281249999e-001	-1.516113281249999e-001	5.000000000000000e+000	1.715599777227615e+000	3.188242892982068e+000	4.660886008736521e+000	1.076907256078318e+000	1.848368672075000e+000	2.000000000000000e+000	2.000000000000000e+000	2.151591328324996e+000	3.110500000000000e+000	7.774289298206749e-001
1.080200195312500e-006	3.113071068498384e+000	1.604003906249999e-001	-1.604003906249999e-001	5.000000000000000e+000	1.679186127276089e+000	3.187896959971591e+000	4.696607792667094e+000	1.083058259841164e+000	1.839579609575000e+000	2.000000000000000e+000	2.000000000000000e+000	2.160380390824996e+000	3.110500000000000e+000	7.739695997159120e-001
