time	V(ainp)	V(ainter1)	V(binp)	V(binter1)	V(inter1)	V(vdd)	V(xorout)	V(n002)	V(n003)	V(n004)	V(n005)
0.000000000000000e+000	0.000000000000000e+000	4.999999976719317e+000	5.000000000000000e+000	1.553075701882678e-008	4.999999974265896e+000	5.000000000000000e+000	4.999999976733315e+000	3.882689229844790e-009	4.522836839729655e+000	7.765378480656352e-009	4.520114377220983e+000
1.953124992195698e-014	9.765624960978488e-008	5.000000014108483e+000	5.000000000000000e+000	3.158516381900178e-008	5.000000006876253e+000	5.000000000000000e+000	4.999999973741515e+000	3.409893434899555e-008	4.522836886302104e+000	2.112437948326101e-008	4.520114427891079e+000
3.906249984391395e-014	1.953124992195698e-007	5.000000051420786e+000	5.000000000000000e+000	4.756897931113002e-008	5.000000039412212e+000	5.000000000000000e+000	4.999999970701955e+000	6.397993168626539e-008	4.522836932816118e+000	3.436114971342423e-008	4.520114478485517e+000
1.462053565586494e-012	7.310267827932470e-006	5.000002285421513e+000	5.000000000000000e+000	8.069042609391409e-007	5.000002047046602e+000	5.000000000000000e+000	4.999999480786642e+000	1.032024417873582e-006	4.522840036704618e+000	5.482481429897953e-007	4.520117696693500e+000
2.885044631329074e-012	1.442522315664537e-005	5.000004239170437e+000	5.000000000000000e+000	1.406645610945710e-006	5.000003853931939e+000	5.000000000000000e+000	4.999998988534425e+000	1.782451330359143e-006	4.522842982858087e+000	9.486870234117157e-007	4.520120659336995e+000
4.308035697071654e-012	2.154017848535827e-005	5.000005912667557e+000	5.000000000000000e+000	1.846793029330837e-006	5.000005460068224e+000	5.000000000000000e+000	4.999998493945305e+000	2.315260669142950e-006	4.522845771276523e+000	1.235677790979185e-006	4.520123366416002e+000
5.731026762814234e-012	2.865513381407117e-005	5.000007305912876e+000	5.000000000000000e+000	2.127346516094523e-006	5.000006865455458e+000	5.000000000000000e+000	4.999997997019283e+000	2.630452434225002e-006	4.522848401959926e+000	1.409220445692204e-006	4.520125817930522e+000
7.154017828556815e-012	3.577008914278407e-005	5.000008418906391e+000	5.000000000000000e+000	2.248306071236767e-006	5.000008070093639e+000	5.000000000000000e+000	4.999997497756357e+000	2.728026625605300e-006	4.522850874908298e+000	1.469314987550771e-006	4.520128013880555e+000
8.577008894299394e-012	4.288504447149697e-005	5.000009251648105e+000	5.000000000000000e+000	2.209671694757570e-006	5.000009073982769e+000	5.000000000000000e+000	4.999996996156527e+000	2.607983243283843e-006	4.522853190121638e+000	1.415961416554888e-006	4.520129954266101e+000
9.999999960041972e-012	4.999999980020986e-005	5.000009804138013e+000	5.000000000000000e+000	2.011443386656930e-006	5.000009877122846e+000	5.000000000000000e+000	4.999996492219795e+000	2.270322287260632e-006	4.522855347599945e+000	1.249159732704554e-006	4.520131639087158e+000
3.999999984016789e-011	1.999999992008394e-004	5.000014799322429e+000	5.000000000000000e+000	9.937204324082329e-007	5.000019436781996e+000	5.000000000000000e+000	4.999993784087148e+000	2.276055423626524e-006	4.522895025051763e+000	5.727577435641815e-007	4.520162293420977e+000
3.199999987213431e-010	1.599999993606716e-003	5.000014215902443e+000	5.000000000000000e+000	3.649533933490259e-007	5.000023534497188e+000	5.000000000000000e+000	4.999994566511402e+000	2.275617258296463e-006	4.523198016811985e+000	1.823129372544998e-007	4.520386630894794e+000
2.559999989770745e-009	1.279999994885372e-002	5.000011667453784e+000	5.000000000000000e+000	1.543860899846617e-007	5.000023574600933e+000	5.000000000000000e+000	4.999997836911717e+000	2.269814426064745e-006	4.525595557546236e+000	7.722415762918083e-008	4.521364874668955e+000
6.466249989770744e-009	3.233124994885372e-002	5.000010580783880e+000	5.000000000000000e+000	6.127322352300103e-008	5.000023678853637e+000	5.000000000000000e+000	4.999999271947078e+000	3.862944257137540e-006	4.529776546276546e+000	3.064796165629750e-008	4.522037008654982e+000
1.037249998977074e-008	5.186249994885372e-002	5.000010350167857e+000	5.000000000000000e+000	3.869588830146629e-008	5.000023782425114e+000	5.000000000000000e+000	4.999999620216588e+000	4.208561668798601e-006	4.533957511315668e+000	1.935798656833027e-008	4.522317602563973e+000
9.240374998977068e-008	4.620187499488535e-001	5.000011086532842e+000	5.000000000000000e+000	1.579105071301736e-008	5.000026183635551e+000	5.000000000000000e+000	4.999999973871017e+000	4.208561858906878e-006	4.621752488540757e+000	7.906103123254168e-009	4.522837038872153e+000
9.435687498977067e-008	4.717843749488535e-001	5.000011083443082e+000	5.000000000000000e+000	-1.118015746030387e-008	5.000013866331996e+000	5.000000000000000e+000	4.999999973958499e+000	5.175742424818513e-006	4.622973516645825e+000	-9.707868925879268e-009	4.522837793930174e+000
9.630999998977067e-008	4.815499999488535e-001	5.000010843708953e+000	5.000000000000000e+000	-2.526426521559481e-007	4.999878403588630e+000	5.000000000000000e+000	4.999999973323472e+000	1.570018210674267e-005	4.613896475498343e+000	-1.673978875741612e-007	4.522838262420528e+000
9.826312498977066e-008	4.913156249488533e-001	4.999924275547583e+000	5.000000000000000e+000	-6.108912882914980e-007	4.999483375055107e+000	5.000000000000000e+000	4.999999792252346e+000	5.126023484803861e-005	4.574494548033226e+000	-3.963287565373599e-007	4.522770333247098e+000
1.002162499897707e-007	5.010812499488532e-001	4.999403009552864e+000	5.000000000000000e+000	-6.554901370836022e-007	4.998979071415556e+000	5.000000000000000e+000	4.999999050938067e+000	1.208056947642425e-004	4.516921338244348e+000	-4.055220764894281e-007	4.522359203675499e+000
1.021693749897707e-007	5.108468749488532e-001	4.998483086994265e+000	5.000000000000000e+000	-1.083960126868123e-006	4.998325401164008e+000	5.000000000000000e+000	4.999998943618015e+000	2.252291887827780e-004	4.481421768511446e+000	-6.825419883434753e-007	4.521632518462872e+000
1.041224999897707e-007	5.206124999488534e-001	4.997446446201495e+000	5.000000000000000e+000	-1.518452296310698e-006	4.997297535440374e+000	5.000000000000000e+000	4.999998808388285e+000	3.641403922466438e-004	4.467183191677441e+000	-9.620372047329843e-007	4.520812844519540e+000
1.060756249897706e-007	5.303781249488532e-001	4.996174204510848e+000	5.000000000000000e+000	-1.788918204914843e-006	4.995988081694081e+000	5.000000000000000e+000	4.999998437834487e+000	5.371525606866871e-004	4.454028402052959e+000	-1.129078476935493e-006	4.519807914025526e+000
1.080287499897706e-007	5.401437499488532e-001	4.994630431222319e+000	5.000000000000000e+000	-2.168442899178578e-006	4.994427469031453e+000	5.000000000000000e+000	4.999998220341853e+000	7.438796709000363e-004	4.440380941640083e+000	-1.370664649835390e-006	4.518589715944833e+000
1.099818749897706e-007	5.499093749488532e-001	4.992831706428947e+000	5.000000000000000e+000	-2.465693486715750e-006	4.992601286874130e+000	5.000000000000000e+000	4.999997887481310e+000	9.839383699022757e-004	4.426674942410749e+000	-1.555938889532358e-006	4.517171313107150e+000
1.119349999897706e-007	5.596749999488532e-001	4.990765532450050e+000	5.000000000000000e+000	-2.825298869829412e-006	4.990520507838284e+000	5.000000000000000e+000	4.999997642843526e+000	1.256946567861024e-003	4.412658805546958e+000	-1.783750771305269e-006	4.515542859995669e+000
1.138881249897706e-007	5.694406249488532e-001	4.988438441428983e+000	5.000000000000000e+000	-3.134625076536444e-006	4.988179113687679e+000	5.000000000000000e+000	4.999997326445935e+000	1.562525082707676e-003	4.398513205214597e+000	-1.976959788929185e-006	4.513709511392797e+000
1.158412499897706e-007	5.792062499488532e-001	4.985844389680466e+000	5.000000000000000e+000	-3.484289806927042e-006	4.985582558816860e+000	5.000000000000000e+000	4.999997066791814e+000	1.900295801959526e-003	4.384133325869940e+000	-2.197647228664558e-006	4.511666502026188e+000
1.177943749897706e-007	5.889718749488532e-001	4.982986122904609e+000	5.000000000000000e+000	-3.799388415326997e-006	4.982728084027153e+000	5.000000000000000e+000	4.999996755998431e+000	2.269883541998436e-003	4.369550676162231e+000	-2.394456704387390e-006	4.509416004899807e+000
1.197474999897706e-007	5.987374999488532e-001	4.979859530441461e+000	5.000000000000000e+000	-4.142633353620908e-006	4.979619344598864e+000	5.000000000000000e+000	4.999996486771511e+000	2.670914432061827e-003	4.354730630983881e+000	-2.610440794124609e-006	4.506954778837667e+000
1.217006249897706e-007	6.085031249488531e-001	4.976466041741221e+000	5.000000000000000e+000	-4.461599089237945e-006	4.976254706152435e+000	5.000000000000000e+000	4.999996179547421e+000	3.103017472003002e-003	4.339701790945593e+000	-2.809510281780495e-006	4.504283958306299e+000
1.236537499897706e-007	6.182687499488530e-001	4.972802632276681e+000	5.000000000000000e+000	-4.800538220927036e-006	4.972636765863452e+000	5.000000000000000e+000	4.999995903275399e+000	3.565823071991454e-003	4.324445369452723e+000	-3.022171476812922e-006	4.501401159091157e+000
1.256068749897706e-007	6.280343749488530e-001	4.968869898784852e+000	5.000000000000000e+000	-5.122137473192101e-006	4.968764589793761e+000	5.000000000000000e+000	4.999995597699166e+000	4.058964443307507e-003	4.308977003001083e+000	-3.222600913487554e-006	4.498306858448141e+000
1.275599999897706e-007	6.377999999488530e-001	4.964665425886629e+000	5.000000000000000e+000	-5.458126253740275e-006	4.964640127806256e+000	5.000000000000000e+000	4.999995315820179e+000	4.582076320748404e-003	4.293286162766583e+000	-3.432798541385511e-006	4.494999153249953e+000
1.295131249897706e-007	6.475656249488527e-001	4.960189313417144e+000	5.000000000000000e+000	-5.781701392018200e-006	4.960262840375048e+000	5.000000000000000e+000	4.999995010733653e+000	5.134796153099246e-003	4.277382134067722e+000	-3.634079255155022e-006	4.491478128259226e+000
1.314662499897706e-007	6.573312499488527e-001	4.955439506465334e+000	5.000000000000000e+000	-6.115695470004833e-006	4.955634244731563e+000	5.000000000000000e+000	4.999994724113178e+000	5.716763015431302e-003	4.261258682614825e+000	-3.842398257455854e-006	4.487742165356665e+000
1.353724999897706e-007	6.768624999488530e-001	4.945116305037839e+000	5.000000000000000e+000	-6.773541396122877e-006	4.945623397152279e+000	5.000000000000000e+000	4.999994127938046e+000	6.967006304074777e-003	4.228367498268697e+000	-4.251110765798926e-006	4.479623470562069e+000
1.392787499897706e-007	6.963937499488527e-001	4.933687049119535e+000	5.000000000000000e+000	-7.432333904966423e-006	4.934611294051305e+000	5.000000000000000e+000	4.999993527103120e+000	8.329963525070830e-003	4.194616587201393e+000	-4.659116190858839e-006	4.470636184148819e+000
1.431849999897705e-007	7.159249999488527e-001	4.921142716469765e+000	5.000000000000000e+000	-8.092475674054849e-006	4.922601036874775e+000	5.000000000000000e+000	4.999992921416680e+000	9.802825903173953e-003	4.160009394736961e+000	-5.066623937670676e-006	4.460773225350551e+000
1.470912499897705e-007	7.354562499488527e-001	4.907481114293015e+000	5.000000000000000e+000	-8.746656596168726e-006	4.909601974799815e+000	5.000000000000000e+000	4.999988121590073e+000	1.138282422859777e-002	4.124555590135723e+000	-5.468689751355396e-006	4.450032878582420e+000
1.529506249897705e-007	7.647531249488525e-001	4.884851240840233e+000	5.000000000000000e+000	-9.751527849841536e-006	4.888234322067584e+000	5.000000000000000e+000	4.999985656976637e+000	1.394769605537431e-002	4.069773959953902e+000	-6.084029692390709e-006	4.432243811579362e+000
1.588099999897705e-007	7.940499999488526e-001	4.859633472317217e+000	5.000000000000000e+000	-1.075759050682379e-005	4.864629927053475e+000	5.000000000000000e+000	4.999984096611336e+000	1.673832203765055e-002	4.013078200900108e+000	-6.696210410522642e-006	4.412422500732965e+000
1.646693749897705e-007	8.233468749488524e-001	4.831792462021780e+000	5.000000000000000e+000	-1.177403888981193e-005	4.838790799993467e+000	5.000000000000000e+000	4.999982505462155e+000	1.974573626667815e-002	3.954473060090340e+000	-7.310334812707395e-006	4.390541201906636e+000
1.716448214183419e-007	8.582241070917094e-001	4.795437769694797e+000	5.000000000000000e+000	-1.301684061156371e-005	4.805232697510326e+000	5.000000000000000e+000	4.999980568711553e+000	2.363181238584955e-002	3.882321105252221e+000	-8.053683230925133e-006	4.361970734532195e+000
1.786202678469133e-007	8.931013392345664e-001	4.754979838796096e+000	5.000000000000000e+000	-1.427864369906845e-005	4.768369860782538e+000	5.000000000000000e+000	4.999978596887186e+000	2.776245723902183e-002	3.807344537515279e+000	-8.801199633355393e-006	4.330178170610714e+000
1.855957142754847e-007	9.279785713774236e-001	4.710418669325675e+000	5.000000000000000e+000	-1.555944815232615e-005	4.728202289810101e+000	5.000000000000000e+000	4.999976589989053e+000	3.213767082619501e-002	3.729543356879513e+000	-9.552884019998178e-006	4.295163510142197e+000
1.925711607040561e-007	9.628558035202806e-001	4.661754261283535e+000	5.000000000000000e+000	-1.685925397133679e-005	4.684729984593015e+000	5.000000000000000e+000	4.999974548017153e+000	3.675745314736905e-002	3.648917563344923e+000	-1.030873639085348e-005	4.256926753126640e+000
1.995466071326275e-007	9.977330356631378e-001	4.608986614669677e+000	5.000000000000000e+000	-1.817806115610037e-005	4.637952945131281e+000	5.000000000000000e+000	4.999972470971488e+000	4.162180420254397e-002	3.565467156911509e+000	-1.106875674592131e-005	4.215467899564047e+000
2.065220535611989e-007	1.032610267805995e+000	4.552115729484099e+000	5.000000000000000e+000	-1.951586970661692e-005	4.587871171424898e+000	5.000000000000000e+000	4.999970358852057e+000	4.673072399171976e-002	3.479192137579272e+000	-1.183294508520166e-005	4.170786949454414e+000
2.134974999897703e-007	1.067487499948852e+000	4.491141605726801e+000	5.000000000000000e+000	-2.087267962288641e-005	4.534484663473867e+000	5.000000000000000e+000	4.999968211658860e+000	5.208421251489645e-002	3.390092505348211e+000	-1.260130140869452e-005	4.122883902797745e+000
2.154506249897703e-007	1.077253124948852e+000	4.473184784854626e+000	5.000000000000000e+000	-1.598392242179976e-005	4.518854873148695e+000	5.000000000000000e+000	4.999967756476044e+000	5.360901419236300e-002	3.364557772421466e+000	-1.033539441078158e-005	4.108777991208453e+000
2.174037499897703e-007	1.087018749948852e+000	4.454915650836027e+000	5.000000000000000e+000	5.301021469431358e-006	4.502941408712390e+000	5.000000000000000e+000	4.999967386858877e+000	5.514884537603329e-002	3.338781085529096e+000	-3.665602372991683e-007	4.094430364214107e+000
2.193568749897703e-007	1.096784374948852e+000	4.436360003423104e+000	5.000000000000000e+000	5.208654544524953e-005	4.486741299230045e+000	5.000000000000000e+000	4.999967052440390e+000	5.670339765799867e-002	3.312761006391905e+000	2.153810787419719e-005	4.079863238559667e+000
2.213099999897703e-007	1.106549999948852e+000	4.417525438788372e+000	5.000000000000000e+000	1.277258069606359e-004	4.470251442416669e+000	5.000000000000000e+000	4.999966725873508e+000	5.827236179401357e-002	3.286495203329986e+000	5.687313740379129e-005	4.065083300265940e+000
2.232631249897703e-007	1.116315624948852e+000	4.398414307386409e+000	5.000000000000000e+000	2.339223545490196e-004	4.453468607095415e+000	5.000000000000000e+000	4.999966411902907e+000	5.985542741510447e-002	3.259981150595388e+000	1.063407640954136e-004	4.050092761528227e+000
2.252162499897703e-007	1.126081249948852e+000	4.379029128375888e+000	5.000000000000000e+000	3.724591941831508e-004	4.436389365874135e+000	5.000000000000000e+000	4.999966106446318e+000	6.145228277080933e-002	3.233216064447340e+000	1.706693718655349e-004	4.034893984082650e+000
2.271693749897703e-007	1.135846874948852e+000	4.359372707692613e+000	5.000000000000000e+000	5.451952524119126e-004	4.419010110971797e+000	5.000000000000000e+000	4.999965814406107e+000	6.306261446311892e-002	3.206197120090739e+000	2.506094516635943e-004	4.019489571175066e+000
2.291224999897703e-007	1.145612499948852e+000	4.339448070927251e+000	5.000000000000000e+000	7.540778008213039e-004	4.401327016564881e+000	5.000000000000000e+000	4.999965531653715e+000	6.468610727670876e-002	3.178921229896218e+000	3.469398129199476e-004	4.003882317512894e+000
2.310756249897703e-007	1.155378124948852e+000	4.319258575059319e+000	5.000000000000000e+000	1.001141448160284e-003	4.383336056703834e+000	5.000000000000000e+000	4.999965263265260e+000	6.632244390635547e-002	3.151385241292944e+000	4.604644408362207e-004	3.988075296798388e+000
2.330287499897703e-007	1.165143749948852e+000	4.298807857608941e+000	5.000000000000000e+000	1.288520692401159e-003	4.365032962989698e+000	5.000000000000000e+000	4.999965005119238e+000	6.797130473880869e-002	3.123585731137532e+000	5.920184851843785e-004	3.972071824488536e+000
2.349818749897703e-007	1.174909374948852e+000	4.278099944454342e+000	5.000000000000000e+000	1.618450423217961e-003	4.346413243317306e+000	5.000000000000000e+000	4.999964762436068e+000	6.963236756822824e-002	3.095519186131588e+000	7.424656466462551e-004	3.955875542576580e+000
2.369349999897703e-007	1.184674999948852e+000	4.257139215200109e+000	5.000000000000000e+000	1.993279146077602e-003	4.327472135463039e+000	5.000000000000000e+000	4.999964531164745e+000	7.130530732503981e-002	3.067181811428008e+000	9.127041375473072e-004	3.939490395231638e+000
2.388881249897703e-007	1.194440624948851e+000	4.235930509559733e+000	5.000000000000000e+000	2.415471181361061e-003	4.308204625482496e+000	5.000000000000000e+000	4.999964316651024e+000	7.298979577257153e-002	3.038569694963472e+000	1.103664624662822e-003	3.922920712817299e+000
2.408412499897703e-007	1.204206249948851e+000	4.214479109653910e+000	5.000000000000000e+000	2.887620855716339e-003	4.288605397555763e+000	5.000000000000000e+000	4.999964114976638e+000	7.468550117710709e-002	3.009678628563634e+000	1.316316231325911e-003	3.906171201034689e+000
2.427943749897703e-007	1.213971874948851e+000	4.192790847742316e+000	5.000000000000000e+000	3.412456648852327e-003	4.268668850925558e+000	5.000000000000000e+000	4.999963931604638e+000	7.639208797733274e-002	2.980504257309506e+000	1.551665076468006e-003	3.889247026418540e+000
2.447474999897703e-007	1.223737499948852e+000	4.170872106698255e+000	5.000000000000000e+000	3.992856714302759e-003	4.248389046113473e+000	5.000000000000000e+000	4.999963762812486e+000	7.810921638825780e-002	2.951041911538644e+000	1.810760399307346e-003	3.872153820040184e+000
2.467006249897703e-007	1.233503124948852e+000	4.148729932302836e+000	5.000000000000000e+000	4.631855308915800e-003	4.227759719294585e+000	5.000000000000000e+000	4.999963614184217e+000	7.983654203313659e-002	2.921286742116373e+000	2.094693750007814e-003	3.854897767076416e+000
2.486537499897703e-007	1.243268749948852e+000	4.126372053788587e+000	5.000000000000000e+000	5.332660095365038e-003	4.206774224756062e+000	5.000000000000000e+000	4.999963482259101e+000	8.157371547186273e-002	2.891233561810804e+000	2.404605333792283e-003	3.837485626655815e+000
2.506068749897703e-007	1.253034374948852e+000	4.103807004495194e+000	5.000000000000000e+000	6.098661299852509e-003	4.185425545560442e+000	5.000000000000000e+000	4.999963372758895e+000	8.332038178256118e-002	2.860876967100197e+000	2.741683928619183e-003	3.819924828579667e+000
2.525599999897703e-007	1.262799999948851e+000	4.081044165171700e+000	5.000000000000000e+000	6.933451370896571e-003	4.163706231852826e+000	5.000000000000000e+000	4.999963282556575e+000	8.507618000231376e-002	2.830211187425162e+000	3.107173566434821e-003	3.802223511547142e+000
2.545131249897703e-007	1.272565624948851e+000	4.058093897575875e+000	5.000000000000000e+000	7.840837458253147e-003	4.141608406557985e+000	5.000000000000000e+000	4.999963217543378e+000	8.684074264241667e-002	2.799230193916457e+000	3.502374279274474e-003	3.784390630753998e+000
